!Agilent Technologies,N5230C,MY49000750,A.09.42.22
!Agilent N5230C: A.09.42.22
!Date: Monday, December 15, 2025 12:00:14
!Correction: S11(Full 2 Port(1,2)) 
!S21(Full 2 Port(1,2)) 
!S12(Full 2 Port(1,2)) 
!S22(Full 2 Port(1,2)) 
!S2P File: Measurements: S11, S21, S12, S22:
# Hz S  RI   R 50
500000000 0.57418752 0.10404875 -0.29465112 -0.63612384 -0.29402277 -0.63590908 0.41951114 -0.47676599
510000000 0.57982731 0.043432746 -0.33580598 -0.61206245 -0.33514389 -0.61220151 0.41402644 -0.47792777
520000000 0.58224785 -0.014301917 -0.37006411 -0.58658087 -0.36999828 -0.5869295 0.40866795 -0.48318017
530000000 0.57526684 -0.063857093 -0.40227565 -0.55504286 -0.40209204 -0.55524629 0.40530306 -0.48749545
540000000 0.57598501 -0.10489877 -0.42178094 -0.52314335 -0.42205441 -0.52351314 0.4068014 -0.4958764
550000000 0.5789876 -0.15870535 -0.44208446 -0.50222379 -0.44171828 -0.50249141 0.40087554 -0.51168281
560000000 0.56699628 -0.21445046 -0.46807975 -0.47882995 -0.46802443 -0.47915548 0.38860801 -0.52341545
570000000 0.54632026 -0.26520896 -0.49511924 -0.45096913 -0.49503621 -0.45076865 0.37495279 -0.53144062
580000000 0.52118349 -0.30556855 -0.51883012 -0.41572171 -0.51888371 -0.41603541 0.36393657 -0.5338214
590000000 0.49963778 -0.33869007 -0.53507179 -0.37802687 -0.53451073 -0.37826127 0.35768974 -0.53644192
600000000 0.47627044 -0.37058073 -0.54783112 -0.34078047 -0.54740256 -0.3407439 0.3502312 -0.53866518
610000000 0.46266666 -0.404073 -0.54923385 -0.30870083 -0.54915571 -0.30877852 0.35050565 -0.5466435
620000000 0.43895292 -0.44210577 -0.55754882 -0.28081661 -0.55748385 -0.2810187 0.34179521 -0.55612946
630000000 0.41051295 -0.4750869 -0.56590825 -0.25044757 -0.56517726 -0.25030056 0.33237463 -0.56208003
640000000 0.38307968 -0.50150484 -0.56859833 -0.2158467 -0.56830335 -0.21570416 0.32562298 -0.5641613
650000000 0.35975179 -0.52896386 -0.56507254 -0.18493563 -0.56466156 -0.1855855 0.32369408 -0.56912398
660000000 0.33406273 -0.55899185 -0.55992776 -0.15987815 -0.55945963 -0.16010904 0.32131109 -0.57791197
670000000 0.30411044 -0.59033924 -0.5555194 -0.1379772 -0.55555415 -0.13836528 0.31676957 -0.58934385
680000000 0.26902944 -0.62143183 -0.55303353 -0.11920321 -0.55300468 -0.11937593 0.30960494 -0.60291463
690000000 0.22821972 -0.64911169 -0.55374664 -0.10104478 -0.55428118 -0.1013178 0.2975294 -0.61691535
700000000 0.1841483 -0.6708129 -0.55574971 -0.079351552 -0.55594361 -0.079619512 0.28337032 -0.62633944
710000000 0.1406589 -0.68599963 -0.55499178 -0.054641124 -0.55469799 -0.054707803 0.26955906 -0.63211942
720000000 0.09737549 -0.70046496 -0.55140728 -0.033264324 -0.55166352 -0.03353402 0.25960743 -0.63947642
730000000 0.055189211 -0.71296448 -0.54510647 -0.01369366 -0.5452258 -0.013850243 0.25209782 -0.6476227
740000000 0.0093112402 -0.72450811 -0.54083163 0.0026167796 -0.54058462 0.0026032343 0.24272858 -0.65926605
750000000 -0.038934451 -0.73072261 -0.53953242 0.017708499 -0.53970176 0.017355843 0.23111883 -0.67269397
760000000 -0.094974503 -0.72924346 -0.53833562 0.041034114 -0.53834307 0.040975079 0.20903978 -0.68350989
770000000 -0.13849789 -0.72647309 -0.53653324 0.05740552 -0.53643745 0.057192035 0.19673315 -0.69110817
780000000 -0.1863908 -0.7200895 -0.53466487 0.075390115 -0.53457761 0.075128548 0.18114255 -0.70062941
790000000 -0.23318319 -0.70864451 -0.53315735 0.095858283 -0.53292102 0.095594019 0.1627406 -0.7077117
800000000 -0.2765919 -0.69389009 -0.52816623 0.11619401 -0.52848732 0.11592779 0.14553119 -0.71209538
810000000 -0.31967032 -0.6779719 -0.52398354 0.13565746 -0.52386647 0.13565774 0.12796345 -0.7170679
820000000 -0.36047927 -0.65805751 -0.51854861 0.15603885 -0.51890135 0.15579963 0.11003415 -0.721977
830000000 -0.39973935 -0.63628864 -0.51244408 0.17485198 -0.51286721 0.17463492 0.09193515 -0.7261132
840000000 -0.43859673 -0.61189175 -0.50595939 0.19408235 -0.50631624 0.19397867 0.073361687 -0.73020506
850000000 -0.47440287 -0.58505923 -0.49915594 0.2131656 -0.49911737 0.21343915 0.054545972 -0.73345691
860000000 -0.50881332 -0.55678529 -0.49242672 0.2325777 -0.49206933 0.2319884 0.03383043 -0.73680151
870000000 -0.54114878 -0.52543342 -0.4848035 0.25270981 -0.48484948 0.25204495 0.012749852 -0.73889697
880000000 -0.56988686 -0.49264407 -0.4761005 0.27269843 -0.47593942 0.27227387 -0.0085254423 -0.73889953
890000000 -0.59595174 -0.45847726 -0.46583545 0.29196471 -0.46620357 0.29191345 -0.029238617 -0.73781443
900000000 -0.61985457 -0.42396155 -0.45500487 0.31149647 -0.45500186 0.31151497 -0.050010361 -0.73510283
910000000 -0.64179295 -0.38802645 -0.44381037 0.32997495 -0.44385245 0.33002299 -0.069536991 -0.7320596
920000000 -0.66155207 -0.35058671 -0.43172228 0.34889919 -0.43140671 0.34876829 -0.089304946 -0.72841483
930000000 -0.67699808 -0.31253695 -0.41789684 0.36785838 -0.41817486 0.36814639 -0.10990225 -0.72297692
940000000 -0.69158471 -0.27450493 -0.4028945 0.38606378 -0.40284356 0.3862651 -0.12951899 -0.71563339
950000000 -0.703076 -0.23547275 -0.38720518 0.40378237 -0.38711357 0.4033626 -0.14870541 -0.70838255
960000000 -0.71294016 -0.19685937 -0.37058178 0.42089382 -0.37074342 0.42088464 -0.1682348 -0.6999771
970000000 -0.72067106 -0.15787104 -0.35320446 0.43639767 -0.35368386 0.43659535 -0.18572377 -0.69050831
980000000 -0.72543633 -0.11920828 -0.33465505 0.45237651 -0.33480677 0.45247188 -0.20338379 -0.67861724
990000000 -0.72921079 -0.081396826 -0.31541139 0.46577698 -0.31566435 0.46557516 -0.21755227 -0.6684705
1000000000 -0.73058724 -0.043554626 -0.29723817 0.47775927 -0.29710251 0.47763509 -0.23268852 -0.65958655
1010000000 -0.7304638 -0.0044237678 -0.27897096 0.49016723 -0.27881351 0.49059552 -0.24845649 -0.65033519
1020000000 -0.72742164 0.032916948 -0.25913611 0.50275248 -0.25907999 0.50283074 -0.26620325 -0.63894331
1030000000 -0.72270769 0.070409276 -0.23797785 0.51392782 -0.23807617 0.51377648 -0.28122577 -0.62525833
1040000000 -0.71652907 0.10777536 -0.21688221 0.52477062 -0.2166744 0.52430856 -0.29509726 -0.6127286
1050000000 -0.70729673 0.14501545 -0.19557087 0.5338825 -0.19539791 0.53366095 -0.30796269 -0.59889013
1060000000 -0.69575268 0.18045726 -0.17313229 0.54288179 -0.1731284 0.54288059 -0.32017556 -0.58433926
1070000000 -0.68318266 0.21526393 -0.14935115 0.54981405 -0.14915025 0.54996598 -0.33053759 -0.56816
1080000000 -0.67004329 0.24932629 -0.12739845 0.55512643 -0.1275856 0.55510217 -0.33834556 -0.55465853
1090000000 -0.65378761 0.28353029 -0.10572895 0.56050324 -0.10540132 0.56033373 -0.34803399 -0.54146445
1100000000 -0.63522905 0.3156341 -0.082945205 0.56531501 -0.082481369 0.56527197 -0.35730323 -0.5259341
1110000000 -0.61572403 0.34602296 -0.058720678 0.56847554 -0.058428254 0.56820679 -0.36334589 -0.5083577
1120000000 -0.59589607 0.37606621 -0.035670798 0.56941551 -0.035722766 0.56943178 -0.36708847 -0.49430022
1130000000 -0.57432777 0.4044171 -0.012929477 0.56963396 -0.01305159 0.57004344 -0.37082627 -0.48182812
1140000000 -0.55226719 0.43295136 0.0076074633 0.56876802 0.0075915623 0.5684709 -0.37418386 -0.47159219
1150000000 -0.52700871 0.46051657 0.027080389 0.56995994 0.027537555 0.56969416 -0.38034344 -0.46172878
1160000000 -0.50018263 0.48476362 0.049276248 0.570517 0.049575705 0.56970417 -0.38461432 -0.45062038
1170000000 -0.47179425 0.50790793 0.070751749 0.56746596 0.070715241 0.56750494 -0.38746506 -0.44138059
1180000000 -0.4442338 0.53300321 0.090939052 0.56780285 0.091077492 0.56757504 -0.39415711 -0.43548268
1190000000 -0.41257879 0.55412734 0.11159701 0.56651527 0.11159245 0.56654626 -0.40108755 -0.42707664
1200000000 -0.37954924 0.57317096 0.13253012 0.5652253 0.13237317 0.56471688 -0.40877256 -0.41749775
1210000000 -0.34488913 0.58980435 0.15467374 0.56266236 0.15417123 0.5628826 -0.41595766 -0.40755895
1220000000 -0.31057891 0.6046285 0.17706761 0.5597102 0.17620584 0.55966729 -0.4239836 -0.39664686
1230000000 -0.27634919 0.61782455 0.19845413 0.55607861 0.19822742 0.55597013 -0.43064001 -0.38570231
1240000000 -0.24053606 0.62872416 0.21955803 0.55219287 0.21916147 0.55223727 -0.43923074 -0.37470618
1250000000 -0.20419538 0.63774312 0.24070026 0.54825997 0.24072576 0.54796135 -0.44762331 -0.3623907
1260000000 -0.16594052 0.64413267 0.26359379 0.54479557 0.26316822 0.5446291 -0.45723268 -0.34984598
1270000000 -0.12775952 0.64752048 0.28693604 0.54034209 0.28656641 0.54000354 -0.46641004 -0.33570993
1280000000 -0.090499997 0.64792567 0.31240684 0.53463948 0.31140268 0.53438127 -0.47598571 -0.31945211
1290000000 -0.053244311 0.64577723 0.33642611 0.52639061 0.33649108 0.52683556 -0.4833414 -0.30209178
1300000000 -0.015482076 0.64280999 0.36184558 0.51884502 0.36153847 0.51884401 -0.49086839 -0.28431135
1310000000 0.02155959 0.63628894 0.38791192 0.50886166 0.38780361 0.50911796 -0.49668735 -0.26335251
1320000000 0.058584131 0.62721491 0.4139618 0.49736246 0.41321439 0.49710876 -0.49899825 -0.24254523
1330000000 0.093590148 0.61510181 0.43982083 0.48441327 0.43961743 0.4845323 -0.50005835 -0.2227779
1340000000 0.12812814 0.60113776 0.46492746 0.46977615 0.4645136 0.46964484 -0.4996866 -0.20265505
1350000000 0.16131285 0.58449262 0.48941404 0.45367521 0.48885837 0.45387039 -0.49841505 -0.184393
1360000000 0.19310048 0.56659192 0.51406753 0.43782514 0.51411152 0.43799016 -0.49814758 -0.16515255
1370000000 0.22370747 0.54552406 0.53979027 0.41954809 0.53978676 0.4199388 -0.49567956 -0.14469355
1380000000 0.25170735 0.52164745 0.56513208 0.39924887 0.56468558 0.39972353 -0.49202859 -0.12404548
1390000000 0.27639812 0.49757534 0.59018952 0.37746787 0.58996898 0.37756288 -0.48745593 -0.1040393
1400000000 0.30052742 0.47167301 0.61383349 0.35352215 0.61337477 0.35344136 -0.48147845 -0.084040001
1410000000 0.32247904 0.4444302 0.63718444 0.32811061 0.63651443 0.32832697 -0.47402209 -0.064026557
1420000000 0.34163409 0.41567266 0.65896112 0.30115345 0.65859991 0.30127567 -0.46523264 -0.044788621
1430000000 0.35781848 0.3858659 0.67985249 0.27261201 0.67995876 0.2725234 -0.45538172 -0.025783231
1440000000 0.37198922 0.35528508 0.69992888 0.24197119 0.69907731 0.24169645 -0.44350007 -0.007928513
1450000000 0.38447869 0.32427794 0.71856564 0.20944788 0.71869487 0.20989528 -0.43187374 0.010367852
1460000000 0.39263615 0.29188648 0.73617363 0.1758415 0.73663574 0.17560935 -0.41799462 0.027591858
1470000000 0.39896551 0.26021299 0.75184959 0.13963516 0.75175464 0.13955136 -0.40168792 0.043690853
1480000000 0.40226388 0.22882563 0.76608062 0.10219353 0.76565266 0.10263925 -0.38470072 0.057913691
1490000000 0.40405843 0.19793344 0.7780869 0.063838966 0.77802509 0.063810684 -0.36701351 0.070704378
1500000000 0.40287349 0.16540599 0.78770834 0.021244317 0.7880547 0.021407595 -0.3481068 0.083958387
1510000000 0.39666852 0.1350296 0.79329753 -0.021665214 0.7933991 -0.021386772 -0.32723811 0.094516031
1520000000 0.39170235 0.10840396 0.79982495 -0.062186167 0.79803562 -0.061851308 -0.30674267 0.10214889
1530000000 0.38290492 0.080911011 0.80059779 -0.10448778 0.80009967 -0.10405466 -0.28612939 0.10905778
1540000000 0.37235272 0.054768696 0.80041718 -0.14778262 0.79956865 -0.14767917 -0.26381275 0.11388529
1550000000 0.35949671 0.029734496 0.79721642 -0.19212355 0.7975145 -0.19232917 -0.24293187 0.11663333
1560000000 0.34501114 0.0063986857 0.7912842 -0.23597482 0.79033607 -0.23523808 -0.22134899 0.11700475
1570000000 0.32828242 -0.015293347 0.78279918 -0.27992374 0.78321636 -0.28035417 -0.20092149 0.11666098
1580000000 0.30967081 -0.035055608 0.77122867 -0.32450777 0.7711522 -0.32372785 -0.18016587 0.11410177
1590000000 0.29033881 -0.051814314 0.75719345 -0.36838216 0.75707382 -0.36812088 -0.16075794 0.10987223
1600000000 0.26877478 -0.06663534 0.73936272 -0.41180027 0.7393772 -0.41109499 -0.14139076 0.10368453
1610000000 0.2473226 -0.078737132 0.72020161 -0.45490932 0.71866196 -0.45368624 -0.12221661 0.096406527
1620000000 0.22469345 -0.088546298 0.69692653 -0.4965764 0.69621736 -0.49565801 -0.1039523 0.087337472
1630000000 0.20147622 -0.095507823 0.66999805 -0.53641236 0.67050821 -0.53619331 -0.086243004 0.076703377
1640000000 0.17759645 -0.099821664 0.64130485 -0.57533836 0.64115405 -0.57431906 -0.070023783 0.064421825
1650000000 0.15469937 -0.10139499 0.6094296 -0.61232716 0.60955781 -0.61163449 -0.054548007 0.050573684
1660000000 0.13232028 -0.099807106 0.57519567 -0.64706427 0.57518351 -0.64751178 -0.04032281 0.036130991
1670000000 0.11125194 -0.096357577 0.53748667 -0.67993712 0.537817 -0.67944378 -0.027918071 0.01934226
1680000000 0.091136627 -0.090067439 0.49896032 -0.70943612 0.49932674 -0.71016365 -0.017186532 0.0017619064
1690000000 0.072548702 -0.082205161 0.45800647 -0.7367633 0.45773175 -0.73621452 -0.0085093714 -0.016573051
1700000000 0.055289824 -0.072187752 0.41491747 -0.76024276 0.41477647 -0.75968087 -0.0019080001 -0.035919718
1710000000 0.039443802 -0.060310539 0.37072361 -0.78178865 0.37100321 -0.78177023 0.0029239019 -0.056133948
1720000000 0.025217682 -0.046843104 0.32572418 -0.79970151 0.32568365 -0.7995044 0.0055950871 -0.077005886
1730000000 0.012657368 -0.03202017 0.27941734 -0.81345481 0.27961326 -0.81334949 0.0048590577 -0.098367289
1740000000 0.0021175414 -0.016080316 0.2337068 -0.82570916 0.23402016 -0.82471168 0.0021843908 -0.11864285
1750000000 -0.0058878809 0.0020213805 0.18713191 -0.83453012 0.18772969 -0.83407754 -0.0027462249 -0.13876456
1760000000 -0.010655237 0.020378839 0.14018181 -0.83969951 0.14101507 -0.83983213 -0.0095627438 -0.1578598
1770000000 -0.013247702 0.038751602 0.09382195 -0.84211433 0.093974344 -0.84288412 -0.018287316 -0.1763733
1780000000 -0.014245563 0.05741071 0.047536109 -0.84393919 0.047785543 -0.84208333 -0.028492402 -0.19263674
1790000000 -0.012155234 0.076516755 0.0017077847 -0.83952707 0.0019566359 -0.83911389 -0.040199187 -0.20872894
1800000000 -0.0082973707 0.094681181 -0.043407906 -0.83443063 -0.043103378 -0.83435053 -0.05332762 -0.22389543
1810000000 -0.0013552771 0.11265546 -0.087353125 -0.82583827 -0.086942978 -0.82498258 -0.068024032 -0.23710358
1820000000 0.0077206795 0.13032445 -0.13048932 -0.81490582 -0.13009596 -0.81457347 -0.084261931 -0.2488524
1830000000 0.019761914 0.14645055 -0.17244186 -0.79940784 -0.17251693 -0.80155951 -0.10090815 -0.25932691
1840000000 0.033522338 0.16055508 -0.21318515 -0.7853961 -0.21248689 -0.78415322 -0.11871117 -0.26769736
1850000000 0.048900358 0.17372674 -0.2515927 -0.76660252 -0.25146064 -0.76660186 -0.1379132 -0.27565077
1860000000 0.066349797 0.18500388 -0.28884861 -0.74682647 -0.28790969 -0.74625629 -0.15795048 -0.28117728
1870000000 0.085616916 0.1941859 -0.32439956 -0.72539985 -0.3236587 -0.72467965 -0.17851272 -0.28483459
1880000000 0.10508128 0.20032655 -0.35757628 -0.70151502 -0.35779148 -0.70123488 -0.20000404 -0.28738284
1890000000 0.12535377 0.20479809 -0.38962796 -0.67685318 -0.38906759 -0.67672086 -0.22191699 -0.28770843
1900000000 0.14628869 0.20690371 -0.41966924 -0.65042239 -0.41900718 -0.64972341 -0.24428694 -0.28606299
1910000000 0.16764975 0.20579565 -0.44727162 -0.62261814 -0.44656411 -0.62245345 -0.2662797 -0.28184476
1920000000 0.1881341 0.2024326 -0.47293246 -0.5935691 -0.47184497 -0.59274077 -0.28850427 -0.27468133
1930000000 0.20805362 0.19733128 -0.49567679 -0.56308746 -0.49583915 -0.56387651 -0.31004483 -0.26684096
1940000000 0.22764598 0.18935177 -0.51628417 -0.53330314 -0.51574904 -0.53297657 -0.33028653 -0.25558335
1950000000 0.24472108 0.17931119 -0.53472883 -0.50279218 -0.53446633 -0.50288522 -0.35019231 -0.24316108
1960000000 0.26098591 0.16907963 -0.55140507 -0.47266677 -0.55228049 -0.47302368 -0.36987871 -0.22902471
1970000000 0.27629033 0.15748639 -0.56682682 -0.44253471 -0.56713384 -0.44296077 -0.38787717 -0.21290532
1980000000 0.29036096 0.14548172 -0.58057749 -0.41263518 -0.57999051 -0.41254041 -0.40366697 -0.19437566
1990000000 0.30368805 0.13284184 -0.59298497 -0.38219321 -0.59247893 -0.38265967 -0.41862607 -0.17455514
2000000000 0.31625959 0.11982553 -0.60347348 -0.35211337 -0.60343009 -0.35290691 -0.43198287 -0.15345463
2010000000 0.3278029 0.10603416 -0.61261684 -0.32185909 -0.61213189 -0.32204178 -0.44336805 -0.13048869
2020000000 0.33828557 0.091764852 -0.61986077 -0.29203847 -0.61900258 -0.29242751 -0.45292032 -0.10714237
2030000000 0.34883574 0.077091552 -0.62598389 -0.26320738 -0.62578803 -0.2628682 -0.460161 -0.082799599
2040000000 0.35787115 0.061061524 -0.63139421 -0.23468976 -0.63110578 -0.23446158 -0.46683252 -0.058302201
2050000000 0.36594832 0.044634588 -0.63590795 -0.20551533 -0.63564664 -0.20564748 -0.47110879 -0.03315172
2060000000 0.37363103 0.027898047 -0.63914555 -0.17696927 -0.63972604 -0.1768904 -0.47386134 -0.0075158454
2070000000 0.38088009 0.0098360544 -0.64159364 -0.14766483 -0.64208877 -0.14787687 -0.47392511 0.01886452
2080000000 0.38665885 -0.0093751214 -0.64216375 -0.11857554 -0.64211732 -0.11908979 -0.47233456 0.045047604
2090000000 0.39126146 -0.028287061 -0.64204717 -0.090218581 -0.64105123 -0.09022259 -0.46822199 0.072010621
2100000000 0.39424074 -0.047264028 -0.63935089 -0.061927564 -0.63967508 -0.062727228 -0.46272075 0.098827451
2110000000 0.3973214 -0.066523768 -0.63654578 -0.034187332 -0.63642848 -0.03470026 -0.45403311 0.12541987
2120000000 0.39982411 -0.087090284 -0.63226616 -0.0060330518 -0.63138157 -0.0058765514 -0.44476387 0.15194455
2130000000 0.39960092 -0.10859186 -0.62437183 0.021491824 -0.62476861 0.021339569 -0.43332234 0.17950574
2140000000 0.39762571 -0.13017879 -0.61589885 0.047539435 -0.61559862 0.047725208 -0.41886958 0.20641077
2150000000 0.39392227 -0.15239386 -0.60511631 0.072238587 -0.60594165 0.072672576 -0.40214214 0.23289932
2160000000 0.38939869 -0.17512737 -0.59545517 0.096218355 -0.59501904 0.096174188 -0.38446206 0.25990611
2170000000 0.38144392 -0.19770145 -0.58385867 0.11808872 -0.58358991 0.11747775 -0.36302 0.2856639
2180000000 0.37181994 -0.21909681 -0.57186991 0.13724458 -0.5710749 0.13702355 -0.33822548 0.31062832
2190000000 0.35908481 -0.23942296 -0.5591253 0.15503809 -0.55839956 0.15452932 -0.30855295 0.33351672
2200000000 0.34459808 -0.25685933 -0.54594851 0.1705143 -0.54614866 0.17031601 -0.27446324 0.35342109
2210000000 0.32952717 -0.27281353 -0.53438425 0.18504004 -0.53397942 0.18461806 -0.23794369 0.36893541
2220000000 0.31379119 -0.28750524 -0.52414209 0.19854519 -0.52354002 0.19822514 -0.19875306 0.38019297
2230000000 0.29766947 -0.29946116 -0.51446694 0.21084906 -0.51447839 0.21128611 -0.15849303 0.3869406
2240000000 0.28114384 -0.31040511 -0.50640291 0.22438174 -0.50627691 0.22433147 -0.11870198 0.38889048
2250000000 0.26507726 -0.31932369 -0.49897853 0.23869632 -0.49901327 0.23851164 -0.078270063 0.38845956
2260000000 0.24947527 -0.32789463 -0.49168777 0.25301418 -0.49149922 0.25252426 -0.037152193 0.38291097
2270000000 0.23368876 -0.33498901 -0.48508713 0.26736116 -0.48510787 0.2674219 0.0028502597 0.37206838
2280000000 0.21868968 -0.3411904 -0.47828925 0.28311935 -0.47764209 0.2826151 0.040870693 0.35767454
2290000000 0.20398277 -0.34650734 -0.47020999 0.2995117 -0.47028434 0.29949409 0.077364676 0.33919024
2300000000 0.18918039 -0.35215858 -0.46192399 0.31614861 -0.46170989 0.31615168 0.11130913 0.31704214
2310000000 0.17453597 -0.35598487 -0.45254514 0.333249 -0.45308575 0.33362925 0.14276929 0.29061311
2320000000 0.16033301 -0.36056334 -0.44181687 0.35082543 -0.44161367 0.35055831 0.17052044 0.26244536
2330000000 0.14587207 -0.36361867 -0.42989391 0.36724776 -0.42998031 0.36719587 0.19595979 0.23079628
2340000000 0.13272448 -0.36731759 -0.41696489 0.38443056 -0.41626868 0.38417423 0.21874879 0.19706102
2350000000 0.11745317 -0.37147269 -0.403532 0.40000075 -0.40364081 0.39930403 0.23823562 0.16046453
2360000000 0.10239311 -0.37521768 -0.39119282 0.41725692 -0.39077935 0.41620654 0.2535598 0.12227101
2370000000 0.087141141 -0.3772023 -0.37759838 0.43330818 -0.37749842 0.43321306 0.26490161 0.082488008
